!Created with skrf (http://scikit-rf.org).
# GHz S RI R 50.0 
!freq ReS11 ImS11 ReS21 ImS21 ReS12 ImS12 ReS22 ImS22
60.0 0.3298929741464821 0.9440183396570156 0.0 0.0 0.0 0.0 0.0 0.0
60.0416666667 0.3336968818331495 0.9426804289125945 0.0 0.0 0.0 0.0 0.0 0.0
60.0833333333 0.3374899980408926 0.9413291141903336 0.0 0.0 0.0 0.0 0.0 0.0
60.125 0.3412723181208251 0.939964470011733 0.0 0.0 0.0 0.0 0.0 0.0
60.1666666667 0.3450438374469653 0.9385865704557423 0.0 0.0 0.0 0.0 0.0 0.0
60.2083333333 0.34880455144367123 0.9371954891548397 0.0 0.0 0.0 0.0 0.0 0.0
60.25 0.3525544556126049 0.9357912992904455 0.0 0.0 0.0 0.0 0.0 0.0
60.2916666667 0.3562935454785747 0.9343740736184342 0.0 0.0 0.0 0.0 0.0 0.0
60.3333333333 0.3600218166167382 0.9329438844646465 0.0 0.0 0.0 0.0 0.0 0.0
60.375 0.36373926467932927 0.9315008037197504 0.0 0.0 0.0 0.0 0.0 0.0
60.4166666667 0.36744588534196815 0.9300449028650484 0.0 0.0 0.0 0.0 0.0 0.0
60.4583333333 0.3711416743306288 0.9285762529674433 0.0 0.0 0.0 0.0 0.0 0.0
60.5 0.37482662744813133 0.9270949246737681 0.0 0.0 0.0 0.0 0.0 0.0
60.5416666667 0.37850074052092025 0.9256009882368941 0.0 0.0 0.0 0.0 0.0 0.0
60.5833333333 0.38216400942579704 0.9240945135101708 0.0 0.0 0.0 0.0 0.0 0.0
60.625 0.3858164301161795 0.9225755699412418 0.0 0.0 0.0 0.0 0.0 0.0
60.6666666667 0.38945799856934504 0.9210442265984626 0.0 0.0 0.0 0.0 0.0 0.0
60.7083333333 0.39308871081292646 0.9195005521648322 0.0 0.0 0.0 0.0 0.0 0.0
60.75 0.39670856295093887 0.9179446149313154 0.0 0.0 0.0 0.0 0.0 0.0
60.7916666667 0.40031755111149336 0.9163764828235701 0.0 0.0 0.0 0.0 0.0 0.0
60.8333333333 0.40391567147305396 0.9147962233953919 0.0 0.0 0.0 0.0 0.0 0.0
60.875 0.40750292029023183 0.9132039038215578 0.0 0.0 0.0 0.0 0.0 0.0
60.9166666667 0.4110792938419641 0.9115995909248711 0.0 0.0 0.0 0.0 0.0 0.0
60.9583333333 0.4146447884575382 0.9099833511691318 0.0 0.0 0.0 0.0 0.0 0.0
61.0 0.418199400542148 0.9083552506515211 0.0 0.0 0.0 0.0 0.0 0.0
61.0416666667 0.4217431265255469 0.9067153551299639 0.0 0.0 0.0 0.0 0.0 0.0
61.0833333333 0.42527596288783087 0.9050637300156427 0.0 0.0 0.0 0.0 0.0 0.0
61.125 0.42879790618476454 0.903400440364937 0.0 0.0 0.0 0.0 0.0 0.0
61.1666666667 0.43230895299689387 0.9017255509071093 0.0 0.0 0.0 0.0 0.0 0.0
61.2083333333 0.4358090999551038 0.9000391260363754 0.0 0.0 0.0 0.0 0.0 0.0
61.25 0.4392983437657024 0.8983412298034144 0.0 0.0 0.0 0.0 0.0 0.0
61.2916666667 0.44277668116000946 0.8966319259433759 0.0 0.0 0.0 0.0 0.0 0.0
61.3333333333 0.4462441089196687 0.8949112778675274 0.0 0.0 0.0 0.0 0.0 0.0
61.375 0.4497006239015061 0.893179348654343 0.0 0.0 0.0 0.0 0.0 0.0
61.4166666667 0.45314622298757634 0.8914362010778414 0.0 0.0 0.0 0.0 0.0 0.0
61.4583333333 0.45658090311025634 0.8896818975988119 0.0 0.0 0.0 0.0 0.0 0.0
61.5 0.4600046612768453 0.8879165003555092 0.0 0.0 0.0 0.0 0.0 0.0
61.5416666667 0.463417494520104 0.8861400711923083 0.0 0.0 0.0 0.0 0.0 0.0
61.5833333333 0.46681939992309474 0.8843526716505365 0.0 0.0 0.0 0.0 0.0 0.0
61.625 0.47021037464355536 0.882554362958774 0.0 0.0 0.0 0.0 0.0 0.0
61.6666666667 0.47359041586490064 0.8807452060618386 0.0 0.0 0.0 0.0 0.0 0.0
61.7083333333 0.4769595208208357 0.8789252616112242 0.0 0.0 0.0 0.0 0.0 0.0
61.75 0.48031768681948755 0.8770945899550269 0.0 0.0 0.0 0.0 0.0 0.0
61.7916666667 0.48366491119487726 0.8752532511672558 0.0 0.0 0.0 0.0 0.0 0.0
61.8333333333 0.48700119133129643 0.8734013050378948 0.0 0.0 0.0 0.0 0.0 0.0
61.875 0.49032652468720456 0.8715388110624611 0.0 0.0 0.0 0.0 0.0 0.0
61.9166666667 0.49364090874717587 0.8696658284716391 0.0 0.0 0.0 0.0 0.0 0.0
61.9583333333 0.4969443410460277 0.8677824162209841 0.0 0.0 0.0 0.0 0.0 0.0
62.0 0.5002368191924919 0.8658886329801183 0.0 0.0 0.0 0.0 0.0 0.0
62.0416666667 0.503518340821628 0.8639845371626941 0.0 0.0 0.0 0.0 0.0 0.0
62.0833333333 0.5067889036187189 0.8620701869157388 0.0 0.0 0.0 0.0 0.0 0.0
62.125 0.5100485053426975 0.860145640108511 0.0 0.0 0.0 0.0 0.0 0.0
62.1666666667 0.5132971437790386 0.8582109543627842 0.0 0.0 0.0 0.0 0.0 0.0
62.2083333333 0.5165348167634188 0.8562661870418458 0.0 0.0 0.0 0.0 0.0 0.0
62.25 0.5197615222049007 0.8543113952390221 0.0 0.0 0.0 0.0 0.0 0.0
62.2916666667 0.5229772580392958 0.852346635808284 0.0 0.0 0.0 0.0 0.0 0.0
62.3333333333 0.5261820222525948 0.8503719653529094 0.0 0.0 0.0 0.0 0.0 0.0
62.375 0.5293758129039098 0.8483874402136826 0.0 0.0 0.0 0.0 0.0 0.0
62.4166666667 0.5325586280793103 0.8463931164998231 0.0 0.0 0.0 0.0 0.0 0.0
62.4583333333 0.5357304659150119 0.8443890500773232 0.0 0.0 0.0 0.0 0.0 0.0
62.5 0.5388913246200902 0.8423752965568283 0.0 0.0 0.0 0.0 0.0 0.0
62.5416666667 0.5420412024307824 0.8403519113248874 0.0 0.0 0.0 0.0 0.0 0.0
62.5833333333 0.5451800976334433 0.8383189495319722 0.0 0.0 0.0 0.0 0.0 0.0
62.625 0.548308008587012 0.8362764660800548 0.0 0.0 0.0 0.0 0.0 0.0
62.6666666667 0.5514249336778022 0.8342245156541681 0.0 0.0 0.0 0.0 0.0 0.0
62.7083333333 0.5545308713422081 0.832163152710123 0.0 0.0 0.0 0.0 0.0 0.0
62.75 0.5576258200889348 0.8300924314617878 0.0 0.0 0.0 0.0 0.0 0.0
62.7916666667 0.5607097784542681 0.8280124059129583 0.0 0.0 0.0 0.0 0.0 0.0
62.8333333333 0.5637827450245364 0.8259231298447809 0.0 0.0 0.0 0.0 0.0 0.0
62.875 0.5668447184581118 0.823824656802735 0.0 0.0 0.0 0.0 0.0 0.0
62.9166666667 0.5698956974411395 0.8217170401288252 0.0 0.0 0.0 0.0 0.0 0.0
62.9583333333 0.572935680709773 0.8196003329487057 0.0 0.0 0.0 0.0 0.0 0.0
63.0 0.5759646670719345 0.8174745881583816 0.0 0.0 0.0 0.0 0.0 0.0
63.0416666667 0.5789826553635191 0.8153398584567103 0.0 0.0 0.0 0.0 0.0 0.0
63.0833333333 0.581989644470388 0.813196196332245 0.0 0.0 0.0 0.0 0.0 0.0
63.125 0.5849856333498956 0.8110436540496582 0.0 0.0 0.0 0.0 0.0 0.0
63.1666666667 0.5879706209875647 0.8088822836825502 0.0 0.0 0.0 0.0 0.0 0.0
63.2083333333 0.5909446064188428 0.8067121371000184 0.0 0.0 0.0 0.0 0.0 0.0
63.25 0.5939075887503887 0.8045332659528125 0.0 0.0 0.0 0.0 0.0 0.0
63.2916666667 0.5968595671172262 0.8023457217064457 0.0 0.0 0.0 0.0 0.0 0.0
63.3333333333 0.5998005407042616 0.8001495556274935 0.0 0.0 0.0 0.0 0.0 0.0
63.375 0.6027305087673287 0.7979448187694919 0.0 0.0 0.0 0.0 0.0 0.0
63.4166666667 0.6056494705908159 0.7957315620063493 0.0 0.0 0.0 0.0 0.0 0.0
63.4583333333 0.6085574255089521 0.7935098360183799 0.0 0.0 0.0 0.0 0.0 0.0
63.5 0.6114543729266095 0.7912796912779492 0.0 0.0 0.0 0.0 0.0 0.0
63.5416666667 0.6143403122774036 0.7890411780831861 0.0 0.0 0.0 0.0 0.0 0.0
63.5833333333 0.6172152430447426 0.786794346543758 0.0 0.0 0.0 0.0 0.0 0.0
63.625 0.6200791647823921 0.7845392465662702 0.0 0.0 0.0 0.0 0.0 0.0
63.6666666667 0.6229320770730502 0.7822759278882709 0.0 0.0 0.0 0.0 0.0 0.0
63.7083333333 0.6257739795491556 0.7800044400637814 0.0 0.0 0.0 0.0 0.0 0.0
63.75 0.628604871913216 0.7777248324484498 0.0 0.0 0.0 0.0 0.0 0.0
63.7916666667 0.6314247538968606 0.7754371542338484 0.0 0.0 0.0 0.0 0.0 0.0
63.8333333333 0.6342336252814066 0.7731414544327604 0.0 0.0 0.0 0.0 0.0 0.0
63.875 0.6370314859179461 0.7708377818641049 0.0 0.0 0.0 0.0 0.0 0.0
63.9166666667 0.6398183356868795 0.768526185187513 0.0 0.0 0.0 0.0 0.0 0.0
63.9583333333 0.6425941745182407 0.7662067128883828 0.0 0.0 0.0 0.0 0.0 0.0
64.0 0.6453590024115463 0.7638794132625737 0.0 0.0 0.0 0.0 0.0 0.0
64.0416666667 0.6481128193958032 0.7615443344512669 0.0 0.0 0.0 0.0 0.0 0.0
64.0833333333 0.650855625549595 0.7592015244257914 0.0 0.0 0.0 0.0 0.0 0.0
64.125 0.6535874210206926 0.7568510309720929 0.0 0.0 0.0 0.0 0.0 0.0
64.1666666667 0.6563082059865368 0.7544929017258768 0.0 0.0 0.0 0.0 0.0 0.0
64.2083333333 0.6590179806740906 0.7521271841572036 0.0 0.0 0.0 0.0 0.0 0.0
64.25 0.6617167453792023 0.749753925554749 0.0 0.0 0.0 0.0 0.0 0.0
64.2916666667 0.6644045004275743 0.7473731730612128 0.0 0.0 0.0 0.0 0.0 0.0
64.3333333333 0.6670812461943625 0.7449849736577083 0.0 0.0 0.0 0.0 0.0 0.0
64.375 0.6697469831233154 0.7425893741477974 0.0 0.0 0.0 0.0 0.0 0.0
64.4166666667 0.6724017116882091 0.7401864211931792 0.0 0.0 0.0 0.0 0.0 0.0
64.4583333333 0.675045432412213 0.7377761612978616 0.0 0.0 0.0 0.0 0.0 0.0
64.5 0.6776781458867857 0.7353586407919938 0.0 0.0 0.0 0.0 0.0 0.0
64.5416666667 0.6802998527335857 0.7329339058678221 0.0 0.0 0.0 0.0 0.0 0.0
64.5833333333 0.6829105536236048 0.7305020025636492 0.0 0.0 0.0 0.0 0.0 0.0
64.625 0.6855102492958179 0.728062976747469 0.0 0.0 0.0 0.0 0.0 0.0
64.6666666667 0.6880989405195724 0.7256168741531869 0.0 0.0 0.0 0.0 0.0 0.0
64.7083333333 0.6906766281134816 0.7231637403643738 0.0 0.0 0.0 0.0 0.0 0.0
64.75 0.6932433129638379 0.720703620797705 0.0 0.0 0.0 0.0 0.0 0.0
64.7916666667 0.6957989959874747 0.7182365607394421 0.0 0.0 0.0 0.0 0.0 0.0
64.8333333333 0.6983436781504225 0.7157626053289867 0.0 0.0 0.0 0.0 0.0 0.0
64.875 0.7008773604860845 0.71328179954213 0.0 0.0 0.0 0.0 0.0 0.0
64.9166666667 0.7034000440585749 0.7107941882277842 0.0 0.0 0.0 0.0 0.0 0.0
64.9583333333 0.7059117299811286 0.708299816091357 0.0 0.0 0.0 0.0 0.0 0.0
65.0 0.708412419434049 0.7057987276777969 0.0 0.0 0.0 0.0 0.0 0.0
65.0416666667 0.7109021136285124 0.7032909674085924 0.0 0.0 0.0 0.0 0.0 0.0
65.0833333333 0.7133808138247464 0.7007765795649441 0.0 0.0 0.0 0.0 0.0 0.0
65.125 0.7158485213497323 0.6982556082706401 0.0 0.0 0.0 0.0 0.0 0.0
65.1666666667 0.7183052375614912 0.6957280975292931 0.0 0.0 0.0 0.0 0.0 0.0
65.2083333333 0.7207509638670189 0.6931940912073352 0.0 0.0 0.0 0.0 0.0 0.0
65.25 0.7231857017397516 0.6906536330167119 0.0 0.0 0.0 0.0 0.0 0.0
65.2916666667 0.7256094526843256 0.6881067665523667 0.0 0.0 0.0 0.0 0.0 0.0
65.3333333333 0.7280222182542769 0.6855535352750518 0.0 0.0 0.0 0.0 0.0 0.0
65.375 0.7304240000692674 0.682993982493851 0.0 0.0 0.0 0.0 0.0 0.0
65.4166666667 0.7328147997803156 0.6804281514039053 0.0 0.0 0.0 0.0 0.0 0.0
65.4583333333 0.735194619087262 0.6778560850690476 0.0 0.0 0.0 0.0 0.0 0.0
65.5 0.7375634597557553 0.6752778264041552 0.0 0.0 0.0 0.0 0.0 0.0
65.5416666667 0.7399213235829601 0.6726934182131117 0.0 0.0 0.0 0.0 0.0 0.0
65.5833333333 0.7422682124147799 0.6701029031712722 0.0 0.0 0.0 0.0 0.0 0.0
65.625 0.7446041281626078 0.6675063238076495 0.0 0.0 0.0 0.0 0.0 0.0
65.6666666667 0.7469290727695074 0.6649037225431093 0.0 0.0 0.0 0.0 0.0 0.0
65.7083333333 0.7492430482271982 0.6622951416726656 0.0 0.0 0.0 0.0 0.0 0.0
65.75 0.7515460565925691 0.6596806233475095 0.0 0.0 0.0 0.0 0.0 0.0
65.7916666667 0.753838099954332 0.6570602096134285 0.0 0.0 0.0 0.0 0.0 0.0
65.8333333333 0.7561191804497702 0.6544339423929415 0.0 0.0 0.0 0.0 0.0 0.0
65.875 0.7583893002810133 0.65180186346717 0.0 0.0 0.0 0.0 0.0 0.0
65.9166666667 0.7606484616821616 0.6491640145144841 0.0 0.0 0.0 0.0 0.0 0.0
65.9583333333 0.7628966669358034 0.6465204370924725 0.0 0.0 0.0 0.0 0.0 0.0
66.0 0.7651339183890464 0.6438711726196663 0.0 0.0 0.0 0.0 0.0 0.0
66.0416666667 0.7673602184211226 0.6412162624143956 0.0 0.0 0.0 0.0 0.0 0.0
66.0833333333 0.7695755694596534 0.6385557476766222 0.0 0.0 0.0 0.0 0.0 0.0
66.125 0.7717799739964625 0.635889669469492 0.0 0.0 0.0 0.0 0.0 0.0
66.1666666667 0.7739734345556365 0.6332180687584271 0.0 0.0 0.0 0.0 0.0 0.0
66.2083333333 0.776155953709567 0.6305409863927899 0.0 0.0 0.0 0.0 0.0 0.0
66.25 0.7783275340945135 0.627858463087306 0.0 0.0 0.0 0.0 0.0 0.0
66.2916666667 0.7804881783791479 0.6251705394613534 0.0 0.0 0.0 0.0 0.0 0.0
66.3333333333 0.78263788928035 0.6224772560204899 0.0 0.0 0.0 0.0 0.0 0.0
66.375 0.7847766695785401 0.619778653137727 0.0 0.0 0.0 0.0 0.0 0.0
66.4166666667 0.7869045220866886 0.617074771093034 0.0 0.0 0.0 0.0 0.0 0.0
66.4583333333 0.7890214496658841 0.6143656500547103 0.0 0.0 0.0 0.0 0.0 0.0
66.5 0.7911274552404195 0.6116513300605323 0.0 0.0 0.0 0.0 0.0 0.0
66.5416666667 0.7932225417672808 0.6089318510574517 0.0 0.0 0.0 0.0 0.0 0.0
66.5833333333 0.7953067122514715 0.6062072528828363 0.0 0.0 0.0 0.0 0.0 0.0
66.625 0.7973799697608678 0.6034775752454745 0.0 0.0 0.0 0.0 0.0 0.0
66.6666666667 0.7994423173961772 0.6007428577654753 0.0 0.0 0.0 0.0 0.0 0.0
66.7083333333 0.8014937583060239 0.5980031399553726 0.0 0.0 0.0 0.0 0.0 0.0
66.75 0.8035342957015704 0.595258461200999 0.0 0.0 0.0 0.0 0.0 0.0
66.7916666667 0.8055639328269437 0.5925088608015809 0.0 0.0 0.0 0.0 0.0 0.0
66.8333333333 0.8075826729740896 0.5897543779507063 0.0 0.0 0.0 0.0 0.0 0.0
66.875 0.8095905194971525 0.5869950517170744 0.0 0.0 0.0 0.0 0.0 0.0
66.9166666667 0.8115874757833753 0.5842309210847789 0.0 0.0 0.0 0.0 0.0 0.0
66.9583333333 0.813573545267716 0.5814620249341479 0.0 0.0 0.0 0.0 0.0 0.0
67.0 0.8155487314469945 0.5786884020223648 0.0 0.0 0.0 0.0 0.0 0.0
67.0416666667 0.8175130378512558 0.5759100910239472 0.0 0.0 0.0 0.0 0.0 0.0
67.0833333333 0.8194664680581591 0.5731271305114478 0.0 0.0 0.0 0.0 0.0 0.0
67.125 0.8214090257068808 0.5703395589359667 0.0 0.0 0.0 0.0 0.0 0.0
67.1666666667 0.8233407144699563 0.5675474146677983 0.0 0.0 0.0 0.0 0.0 0.0
67.2083333333 0.8252615380674223 0.5647507359770259 0.0 0.0 0.0 0.0 0.0 0.0
67.25 0.8271715002804941 0.5619495610139016 0.0 0.0 0.0 0.0 0.0 0.0
67.2916666667 0.8290706049238715 0.5591439278496779 0.0 0.0 0.0 0.0 0.0 0.0
67.3333333333 0.8309588558596466 0.556333874457081 0.0 0.0 0.0 0.0 0.0 0.0
67.375 0.8328362570107452 0.5535194386905776 0.0 0.0 0.0 0.0 0.0 0.0
67.4166666667 0.8347028123337032 0.550700658327377 0.0 0.0 0.0 0.0 0.0 0.0
67.4583333333 0.836558525832336 0.5478775710477924 0.0 0.0 0.0 0.0 0.0 0.0
67.5 0.8384034015709484 0.5450502144153906 0.0 0.0 0.0 0.0 0.0 0.0
67.5416666667 0.8402374436475759 0.5422186259181685 0.0 0.0 0.0 0.0 0.0 0.0
67.5833333333 0.8420606562074233 0.5393828429487941 0.0 0.0 0.0 0.0 0.0 0.0
67.625 0.8438730434558351 0.5365429027846574 0.0 0.0 0.0 0.0 0.0 0.0
67.6666666667 0.8456746096320059 0.5336988426292065 0.0 0.0 0.0 0.0 0.0 0.0
67.7083333333 0.8474653590221849 0.5308506995920785 0.0 0.0 0.0 0.0 0.0 0.0
67.75 0.849245295972413 0.5279985106690438 0.0 0.0 0.0 0.0 0.0 0.0
67.7916666667 0.8510144248626982 0.5251423127835072 0.0 0.0 0.0 0.0 0.0 0.0
67.8333333333 0.8527727501199868 0.5222821427665266 0.0 0.0 0.0 0.0 0.0 0.0
67.875 0.8545202762306648 0.5194180373366603 0.0 0.0 0.0 0.0 0.0 0.0
67.9166666667 0.856257007715202 0.51655003314162 0.0 0.0 0.0 0.0 0.0 0.0
67.9583333333 0.8579829491408857 0.5136781667381908 0.0 0.0 0.0 0.0 0.0 0.0
68.0 0.859698105134092 0.5108024745719735 0.0 0.0 0.0 0.0 0.0 0.0
68.0416666667 0.8614024803553944 0.5079229930191922 0.0 0.0 0.0 0.0 0.0 0.0
68.0833333333 0.8630960795120627 0.5050397583665144 0.0 0.0 0.0 0.0 0.0 0.0
68.125 0.8647789073701015 0.5021528067906954 0.0 0.0 0.0 0.0 0.0 0.0
68.1666666667 0.866450968729822 0.4992621744005381 0.0 0.0 0.0 0.0 0.0 0.0
68.2083333333 0.8681122684381112 0.4963678972166076 0.0 0.0 0.0 0.0 0.0 0.0
68.25 0.869762811400235 0.4934700111507882 0.0 0.0 0.0 0.0 0.0 0.0
68.2916666667 0.8714026025558741 0.49056855204838523 0.0 0.0 0.0 0.0 0.0 0.0
68.3333333333 0.8730316468911605 0.487663555667745 0.0 0.0 0.0 0.0 0.0 0.0
68.375 0.8746499494502479 0.48475505765972055 0.0 0.0 0.0 0.0 0.0 0.0
68.4166666667 0.8762575153118103 0.4818430936099141 0.0 0.0 0.0 0.0 0.0 0.0
68.4583333333 0.8778543496008492 0.4789276990182029 0.0 0.0 0.0 0.0 0.0 0.0
68.5 0.8794404575000252 0.4760089092781209 0.0 0.0 0.0 0.0 0.0 0.0
68.5416666667 0.8810158442266285 0.4730867597192306 0.0 0.0 0.0 0.0 0.0 0.0
68.5833333333 0.8825805150441427 0.47016128558656917 0.0 0.0 0.0 0.0 0.0 0.0
68.625 0.8841344752733542 0.46723252201993687 0.0 0.0 0.0 0.0 0.0 0.0
68.6666666667 0.8856777302697789 0.4643005040964019 0.0 0.0 0.0 0.0 0.0 0.0
68.7083333333 0.8872102854349974 0.46136526680966183 0.0 0.0 0.0 0.0 0.0 0.0
68.75 0.8887321462275306 0.4584268450492481 0.0 0.0 0.0 0.0 0.0 0.0
68.7916666667 0.8902433181407273 0.4554852736431636 0.0 0.0 0.0 0.0 0.0 0.0
68.8333333333 0.8917438067138714 0.45254058733715086 0.0 0.0 0.0 0.0 0.0 0.0
68.875 0.8932336175428216 0.4495928207738245 0.0 0.0 0.0 0.0 0.0 0.0
68.9166666667 0.8947127562583631 0.44664200853542957 0.0 0.0 0.0 0.0 0.0 0.0
68.9583333333 0.8961812285370818 0.4436881851230284 0.0 0.0 0.0 0.0 0.0 0.0
69.0 0.8976390401117734 0.4407313849355566 0.0 0.0 0.0 0.0 0.0 0.0
69.0416666667 0.8990861967502557 0.4377716423127024 0.0 0.0 0.0 0.0 0.0 0.0
69.0833333333 0.9005227042660103 0.4348089915140116 0.0 0.0 0.0 0.0 0.0 0.0
69.125 0.901948568528363 0.4318434666978728 0.0 0.0 0.0 0.0 0.0 0.0
69.1666666667 0.9033637954417559 0.42887510196450584 0.0 0.0 0.0 0.0 0.0 0.0
69.2083333333 0.9047683909561552 0.42590393133500154 0.0 0.0 0.0 0.0 0.0 0.0
69.25 0.9061623610770048 0.422929988730225 0.0 0.0 0.0 0.0 0.0 0.0
69.2916666667 0.9075457118449541 0.4199533080139215 0.0 0.0 0.0 0.0 0.0 0.0
69.3333333333 0.9089184493460376 0.41697392297168245 0.0 0.0 0.0 0.0 0.0 0.0
69.375 0.9102805797213993 0.41399186728977333 0.0 0.0 0.0 0.0 0.0 0.0
69.4166666667 0.9116321091474756 0.41100717459835767 0.0 0.0 0.0 0.0 0.0 0.0
69.4583333333 0.9129730438459494 0.4080198784503791 0.0 0.0 0.0 0.0 0.0 0.0
69.5 0.914303390093238 0.4050300123003383 0.0 0.0 0.0 0.0 0.0 0.0
69.5416666667 0.9156231542011404 0.40203760954760753 0.0 0.0 0.0 0.0 0.0 0.0
69.5833333333 0.9169323425265579 0.39904270351524956 0.0 0.0 0.0 0.0 0.0 0.0
69.625 0.9182309614807537 0.39604532742873094 0.0 0.0 0.0 0.0 0.0 0.0
69.6666666667 0.9195190175104586 0.39304551445933206 0.0 0.0 0.0 0.0 0.0 0.0
69.7083333333 0.9207965171073569 0.39004329770291035 0.0 0.0 0.0 0.0 0.0 0.0
69.75 0.9220634668171249 0.3870387101585376 0.0 0.0 0.0 0.0 0.0 0.0
69.7916666667 0.923319873220986 0.38403178477201916 0.0 0.0 0.0 0.0 0.0 0.0
69.8333333333 0.9245657429449716 0.3810225544145814 0.0 0.0 0.0 0.0 0.0 0.0
69.875 0.9258010826687288 0.3780110518614627 0.0 0.0 0.0 0.0 0.0 0.0
69.9166666667 0.9270258991075311 0.3749973098355155 0.0 0.0 0.0 0.0 0.0 0.0
69.9583333333 0.9282401990213134 0.37198136098583306 0.0 0.0 0.0 0.0 0.0 0.0
70.0 0.9294439892232474 0.3689632378662888 0.0 0.0 0.0 0.0 0.0 0.0
70.0416666667 0.93063727656221 0.36594297297922357 0.0 0.0 0.0 0.0 0.0 0.0
70.0833333333 0.9318200679315881 0.3629205987540118 0.0 0.0 0.0 0.0 0.0 0.0
70.125 0.9329923702776287 0.3598961475255501 0.0 0.0 0.0 0.0 0.0 0.0
70.1666666667 0.9341541905823573 0.35686965157802486 0.0 0.0 0.0 0.0 0.0 0.0
70.2083333333 0.9353055358721579 0.35384114312342946 0.0 0.0 0.0 0.0 0.0 0.0
70.25 0.9364464132258954 0.3508106542799913 0.0 0.0 0.0 0.0 0.0 0.0
70.2916666667 0.937576829758287 0.34777821711602314 0.0 0.0 0.0 0.0 0.0 0.0
70.3333333333 0.9386967926282536 0.3447438636283893 0.0 0.0 0.0 0.0 0.0 0.0
70.375 0.9398063090468152 0.3417076257208816 0.0 0.0 0.0 0.0 0.0 0.0
70.4166666667 0.9409053862609159 0.3386695352481478 0.0 0.0 0.0 0.0 0.0 0.0
70.4583333333 0.9419940315615467 0.33562962399410434 0.0 0.0 0.0 0.0 0.0 0.0
70.5 0.9430722522914167 0.3325879236502647 0.0 0.0 0.0 0.0 0.0 0.0
70.5416666667 0.9441400558292281 0.3295444658597412 0.0 0.0 0.0 0.0 0.0 0.0
70.5833333333 0.9451974495975705 0.32649928219560953 0.0 0.0 0.0 0.0 0.0 0.0
70.625 0.9462444410703698 0.32345240413919274 0.0 0.0 0.0 0.0 0.0 0.0
70.6666666667 0.9472810377576093 0.3204038631241311 0.0 0.0 0.0 0.0 0.0 0.0
70.7083333333 0.9483072472130019 0.3173536905146977 0.0 0.0 0.0 0.0 0.0 0.0
70.75 0.949323077041212 0.31430191758404064 0.0 0.0 0.0 0.0 0.0 0.0
70.7916666667 0.9503285348830255 0.3112485755583183 0.0 0.0 0.0 0.0 0.0 0.0
70.8333333333 0.9513236284227954 0.30819369559497306 0.0 0.0 0.0 0.0 0.0 0.0
70.875 0.9523083653954414 0.3051373087609287 0.0 0.0 0.0 0.0 0.0 0.0
70.9166666667 0.953282753572066 0.302079446076789 0.0 0.0 0.0 0.0 0.0 0.0
70.9583333333 0.9542468007671763 0.29902013849506665 0.0 0.0 0.0 0.0 0.0 0.0
71.0 0.9552005148454581 0.2959594168783481 0.0 0.0 0.0 0.0 0.0 0.0
71.0416666667 0.95614390370784 0.29289731204354325 0.0 0.0 0.0 0.0 0.0 0.0
71.0833333333 0.9570769752984905 0.28983385474007783 0.0 0.0 0.0 0.0 0.0 0.0
71.125 0.9579997376113678 0.2867690756280228 0.0 0.0 0.0 0.0 0.0 0.0
71.1666666667 0.9589121986767309 0.2837030053223932 0.0 0.0 0.0 0.0 0.0 0.0
71.2083333333 0.9598143665679119 0.2806356743713065 0.0 0.0 0.0 0.0 0.0 0.0
71.25 0.9607062494076436 0.2775671132340761 0.0 0.0 0.0 0.0 0.0 0.0
